<Qucs Dataset 0.0.17>
<indep Ro 1>
  +3.03750000000e+05
</indep>
<indep gm 1>
  +1.89933523267e-02
</indep>
<indep Rpi 1>
  +4.21200000000e+03
</indep>
<indep IBQ 1>
  +6.17283950617e-06
</indep>
<indep ICQ 1>
  +4.93827160494e-04
</indep>
<indep IEQ 1>
  +5.00000000000e-04
</indep>
<indep time 201>
  +0.00000000000e+00
  +1.00000000000e-05
  +2.00000000000e-05
  +3.00000000000e-05
  +4.00000000000e-05
  +5.00000000000e-05
  +6.00000000000e-05
  +7.00000000000e-05
  +8.00000000000e-05
  +9.00000000000e-05
  +1.00000000000e-04
  +1.10000000000e-04
  +1.20000000000e-04
  +1.30000000000e-04
  +1.40000000000e-04
  +1.50000000000e-04
  +1.60000000000e-04
  +1.70000000000e-04
  +1.80000000000e-04
  +1.90000000000e-04
  +2.00000000000e-04
  +2.10000000000e-04
  +2.20000000000e-04
  +2.30000000000e-04
  +2.40000000000e-04
  +2.50000000000e-04
  +2.60000000000e-04
  +2.70000000000e-04
  +2.80000000000e-04
  +2.90000000000e-04
  +3.00000000000e-04
  +3.10000000000e-04
  +3.20000000000e-04
  +3.30000000000e-04
  +3.40000000000e-04
  +3.50000000000e-04
  +3.60000000000e-04
  +3.70000000000e-04
  +3.80000000000e-04
  +3.90000000000e-04
  +4.00000000000e-04
  +4.10000000000e-04
  +4.20000000000e-04
  +4.30000000000e-04
  +4.40000000000e-04
  +4.50000000000e-04
  +4.60000000000e-04
  +4.70000000000e-04
  +4.80000000000e-04
  +4.90000000000e-04
  +5.00000000000e-04
  +5.10000000000e-04
  +5.20000000000e-04
  +5.30000000000e-04
  +5.40000000000e-04
  +5.50000000000e-04
  +5.60000000000e-04
  +5.70000000000e-04
  +5.80000000000e-04
  +5.90000000000e-04
  +6.00000000000e-04
  +6.10000000000e-04
  +6.20000000000e-04
  +6.30000000000e-04
  +6.40000000000e-04
  +6.50000000000e-04
  +6.60000000000e-04
  +6.70000000000e-04
  +6.80000000000e-04
  +6.90000000000e-04
  +7.00000000000e-04
  +7.10000000000e-04
  +7.20000000000e-04
  +7.30000000000e-04
  +7.40000000000e-04
  +7.50000000000e-04
  +7.60000000000e-04
  +7.70000000000e-04
  +7.80000000000e-04
  +7.90000000000e-04
  +8.00000000000e-04
  +8.10000000000e-04
  +8.20000000000e-04
  +8.30000000000e-04
  +8.40000000000e-04
  +8.50000000000e-04
  +8.60000000000e-04
  +8.70000000000e-04
  +8.80000000000e-04
  +8.90000000000e-04
  +9.00000000000e-04
  +9.10000000000e-04
  +9.20000000000e-04
  +9.30000000000e-04
  +9.40000000000e-04
  +9.50000000000e-04
  +9.60000000000e-04
  +9.70000000000e-04
  +9.80000000000e-04
  +9.90000000000e-04
  +1.00000000000e-03
  +1.01000000000e-03
  +1.02000000000e-03
  +1.03000000000e-03
  +1.04000000000e-03
  +1.05000000000e-03
  +1.06000000000e-03
  +1.07000000000e-03
  +1.08000000000e-03
  +1.09000000000e-03
  +1.10000000000e-03
  +1.11000000000e-03
  +1.12000000000e-03
  +1.13000000000e-03
  +1.14000000000e-03
  +1.15000000000e-03
  +1.16000000000e-03
  +1.17000000000e-03
  +1.18000000000e-03
  +1.19000000000e-03
  +1.20000000000e-03
  +1.21000000000e-03
  +1.22000000000e-03
  +1.23000000000e-03
  +1.24000000000e-03
  +1.25000000000e-03
  +1.26000000000e-03
  +1.27000000000e-03
  +1.28000000000e-03
  +1.29000000000e-03
  +1.30000000000e-03
  +1.31000000000e-03
  +1.32000000000e-03
  +1.33000000000e-03
  +1.34000000000e-03
  +1.35000000000e-03
  +1.36000000000e-03
  +1.37000000000e-03
  +1.38000000000e-03
  +1.39000000000e-03
  +1.40000000000e-03
  +1.41000000000e-03
  +1.42000000000e-03
  +1.43000000000e-03
  +1.44000000000e-03
  +1.45000000000e-03
  +1.46000000000e-03
  +1.47000000000e-03
  +1.48000000000e-03
  +1.49000000000e-03
  +1.50000000000e-03
  +1.51000000000e-03
  +1.52000000000e-03
  +1.53000000000e-03
  +1.54000000000e-03
  +1.55000000000e-03
  +1.56000000000e-03
  +1.57000000000e-03
  +1.58000000000e-03
  +1.59000000000e-03
  +1.60000000000e-03
  +1.61000000000e-03
  +1.62000000000e-03
  +1.63000000000e-03
  +1.64000000000e-03
  +1.65000000000e-03
  +1.66000000000e-03
  +1.67000000000e-03
  +1.68000000000e-03
  +1.69000000000e-03
  +1.70000000000e-03
  +1.71000000000e-03
  +1.72000000000e-03
  +1.73000000000e-03
  +1.74000000000e-03
  +1.75000000000e-03
  +1.76000000000e-03
  +1.77000000000e-03
  +1.78000000000e-03
  +1.79000000000e-03
  +1.80000000000e-03
  +1.81000000000e-03
  +1.82000000000e-03
  +1.83000000000e-03
  +1.84000000000e-03
  +1.85000000000e-03
  +1.86000000000e-03
  +1.87000000000e-03
  +1.88000000000e-03
  +1.89000000000e-03
  +1.90000000000e-03
  +1.91000000000e-03
  +1.92000000000e-03
  +1.93000000000e-03
  +1.94000000000e-03
  +1.95000000000e-03
  +1.96000000000e-03
  +1.97000000000e-03
  +1.98000000000e-03
  +1.99000000000e-03
  +2.00000000000e-03
</indep>
<dep Av time>
  +inf-jnan
  +8.89953447307e-01
  +8.73285401810e-01
  +8.49815866797e-01
  +8.13744043447e-01
  +7.54464357448e-01
  +6.70634931294e-01
  +5.65688866387e-01
  +4.88763287560e-01
  +4.42932220993e-01
  +4.06413826834e-01
  +3.76830866012e-01
  +3.52559175843e-01
  +3.32457596864e-01
  +3.15703329438e-01
  +3.01690222612e-01
  +2.89963962790e-01
  +2.80179532748e-01
  +2.72072568990e-01
  +2.65439670621e-01
  +2.60124645620e-01
  +2.56008809064e-01
  +2.53004128986e-01
  +2.51048440409e-01
  +2.50102222399e-01
  +2.50146617836e-01
  +2.51182507637e-01
  +2.53230553725e-01
  +2.56332214698e-01
  +2.60551828369e-01
  +2.65979959816e-01
  +2.72738349296e-01
  +2.80986985453e-01
  +2.90934114165e-01
  +3.02850435982e-01
  +3.17089456877e-01
  +3.34117139441e-01
  +3.54556029882e-01
  +3.79252619095e-01
  +4.09383062136e-01
  +4.46622092515e-01
  +4.93393465719e-01
  +5.52933110500e-01
  +6.16365922015e-01
  +6.59190333772e-01
  +7.10608363532e-01
  +7.24347258246e-01
  +7.03967911547e-01
  +6.31029310855e-01
  +3.76607136535e-01
  -2.72128964548e+14
  +1.45126259705e+00
  +1.19066622876e+00
  +1.10587007573e+00
  +1.06450955781e+00
  +1.04022742992e+00
  +1.02429981328e+00
  +1.01302319663e+00
  +1.00456693829e+00
  +9.97927080754e-01
  +9.92509505965e-01
  +9.87941391157e-01
  +9.83977487018e-01
  +9.80449985662e-01
  +9.77240078755e-01
  +9.74261018055e-01
  +9.71447602859e-01
  +9.68749418048e-01
  +9.66126341979e-01
  +9.63545470207e-01
  +9.60978944013e-01
  +9.58402367349e-01
  +9.55793609753e-01
  +9.53131860947e-01
  +9.50396844250e-01
  +9.47568120875e-01
  +9.44624431626e-01
  +9.41543029476e-01
  +9.38298957763e-01
  +9.34864224574e-01
  +9.31206813833e-01
  +9.27289455996e-01
  +9.23068052851e-01
  +9.18489606305e-01
  +9.13489430470e-01
  +9.07987313312e-01
  +9.01882108690e-01
  +8.95043926934e-01
  +8.87302547233e-01
  +8.78429688734e-01
  +8.68110911171e-01
  +8.55899198485e-01
  +8.41134408303e-01
  +8.22794837978e-01
  +7.99202450467e-01
  +7.67378403402e-01
  +7.21440299625e-01
  +6.47813641952e-01
  +5.06132457238e-01
  +9.57609763431e-02
  -2.05327755337e+14
  +1.66636632172e+00
  +1.24155172745e+00
  +1.06970673860e+00
  +9.37564601545e-01
  +7.99684719648e-01
  +6.78212066812e-01
  +5.87070823976e-01
  +5.18928202527e-01
  +4.66567625256e-01
  +4.25325271312e-01
  +3.92203607336e-01
  +3.65204959402e-01
  +3.42950286516e-01
  +3.24459056696e-01
  +3.09016994353e-01
  +2.96093487431e-01
  +2.85288250897e-01
  +2.76295894688e-01
  +2.68881826756e-01
  +2.62865556063e-01
  +2.58108967853e-01
  +2.54508037048e-01
  +2.51986992702e-01
  +2.50494293270e-01
  +2.50000000002e-01
  +2.50494293269e-01
  +2.51986992702e-01
  +2.54508037049e-01
  +2.58108967855e-01
  +2.62865556060e-01
  +2.68881826755e-01
  +2.76295894686e-01
  +2.85288250895e-01
  +2.96093487425e-01
  +3.09016994333e-01
  +3.24459056596e-01
  +3.42950285924e-01
  +3.65204955576e-01
  +3.92203579872e-01
  +4.25325053022e-01
  +4.66565714225e-01
  +5.18909872145e-01
  +5.86879862211e-01
  +6.76140807578e-01
  +7.81895561066e-01
  +8.70322720190e-01
  +9.35155361228e-01
  +1.00394841955e+00
  +1.15067584487e+00
  +4.46104838131e+13
  +6.48320424190e-01
  +7.84757540101e-01
  +8.32768194334e-01
  +8.57950755091e-01
  +8.73603047527e-01
  +8.84248373476e-01
  +8.91874882853e-01
  +8.97505205626e-01
  +9.01724496083e-01
  +9.04894186514e-01
  +9.07250545015e-01
  +9.08954753622e-01
  +9.10120342786e-01
  +9.10829146940e-01
  +9.11141041423e-01
  +9.11100118829e-01
  +9.10738727605e-01
  +9.10080171936e-01
  +9.09140539785e-01
  +9.07929940518e-01
  +9.06453325640e-01
  +9.04711000464e-01
  +9.02698892793e-01
  +9.00408616402e-01
  +8.97827346429e-01
  +8.94937506847e-01
  +8.91716254328e-01
  +8.88134725725e-01
  +8.84156995695e-01
  +8.79738663669e-01
  +8.74824951102e-01
  +8.69348134194e-01
  +8.63224053339e-01
  +8.56347310753e-01
  +8.48584561567e-01
  +8.39764966683e-01
  +8.29666308202e-01
  +8.17994279134e-01
  +8.04350667754e-01
  +7.88182765633e-01
  +7.68699568532e-01
  +7.44726019177e-01
  +7.14433900878e-01
  +6.74806592155e-01
  +6.20467452138e-01
  +5.40763665152e-01
  +4.11049268182e-01
  +1.57909613561e-01
  -5.83876852893e-01
  -1.86924163479e+14
</dep>
<dep V2.It time>
  +2.49383461919e-04
  +1.78534997490e-04
  +1.28257241687e-04
  +8.17118647257e-05
  +4.17107364586e-05
  +1.38359951215e-05
  +2.52670456843e-06
  +1.73402143652e-07
  +1.21813566148e-08
  +1.62207383860e-09
  +2.35392657701e-10
  +3.75284233915e-11
  +6.62241984768e-12
  +1.30295135094e-12
  +2.88079191190e-13
  +7.23528874736e-14
  +2.10477404825e-14
  +7.35574369203e-15
  +3.25022166995e-15
  +1.86873639456e-15
  +1.34967306741e-15
  +1.13443622112e-15
  +1.03844593412e-15
  +9.95341067693e-16
  +9.80255921377e-16
  +9.85436973598e-16
  +1.01347512561e-15
  +1.07953573567e-15
  +1.22538915721e-15
  +1.56418553956e-15
  +2.42530717641e-15
  +4.86152462945e-15
  +1.25938408669e-14
  +4.02087245495e-14
  +1.51180426105e-13
  +6.51951894373e-13
  +3.18082549973e-12
  +1.74076600518e-11
  +1.06091161804e-10
  +7.14890896047e-10
  +5.28605721225e-09
  +4.25098918037e-08
  +3.65195430909e-07
  +2.37445649936e-06
  +7.32000203523e-06
  +3.03404866777e-05
  +6.96975742207e-05
  +1.17805993204e-04
  +1.70495167373e-04
  +2.25796336689e-04
  +2.82624348564e-04
  +3.40275032488e-04
  +3.98229242712e-04
  +4.56067841703e-04
  +5.13431079981e-04
  +5.69997674040e-04
  +6.25473422430e-04
  +6.79584784683e-04
  +7.32075198135e-04
  +7.82702978005e-04
  +8.31240167749e-04
  +8.77471975574e-04
  +9.21196578804e-04
  +9.62225160272e-04
  +1.00038208939e-03
  +1.03550518992e-03
  +1.06744605497e-03
  +1.09607038169e-03
  +1.12125830584e-03
  +1.14290472198e-03
  +1.16091957858e-03
  +1.17522814024e-03
  +1.18577121084e-03
  +1.19250531352e-03
  +1.19540282395e-03
  +1.19445205483e-03
  +1.18965729029e-03
  +1.18103876935e-03
  +1.16863261897e-03
  +1.15249073723e-03
  +1.13268062857e-03
  +1.10928519375e-03
  +1.08240247798e-03
  +1.05214538249e-03
  +1.01864134611e-03
  +9.82032005784e-04
  +9.42472848059e-04
  +9.00132867936e-04
  +8.55194257708e-04
  +8.07852157834e-04
  +7.58314516353e-04
  +7.06802125811e-04
  +6.53548943533e-04
  +5.98802862248e-04
  +5.42827204599e-04
  +4.85903407001e-04
  +4.28335721399e-04
  +3.70459486485e-04
  +3.12656053676e-04
  +2.55380949966e-04
  +1.99220546166e-04
  +1.45016297665e-04
  +9.41674694139e-05
  +4.94416676769e-05
  +1.67995726762e-05
  +2.87783317147e-06
  +3.32854882369e-07
  +3.73367375868e-08
  +4.42510433196e-09
  +5.63961122610e-10
  +7.80061047211e-11
  +1.18051140654e-11
  +1.97001891546e-12
  +3.65572950321e-13
  +7.63546973522e-14
  +1.84265900390e-14
  +5.47487826214e-15
  +2.23149761695e-15
  +1.32046876643e-15
  +1.03385314095e-15
  +9.33423423427e-16
  +8.94663986861e-16
  +8.78499280840e-16
  +8.71476613390e-16
  +8.68619284646e-16
  +8.68111205385e-16
  +8.69624101271e-16
  +8.74039570274e-16
  +8.84222125070e-16
  +9.07834044036e-16
  +9.66219565086e-16
  +1.12411724662e-15
  +1.59801898794e-15
  +3.18987632874e-15
  +9.19649935517e-15
  +3.46617423465e-14
  +1.55692908849e-13
  +7.98132239345e-13
  +4.58805811260e-12
  +2.92946356894e-11
  +2.06144297079e-10
  +1.58642687085e-09
  +1.32411569514e-08
  +1.18493888861e-07
  +1.09377981904e-06
  +8.36277767607e-06
  +3.34826086227e-05
  +7.45927708864e-05
  +1.23873178314e-04
  +1.77315335552e-04
  +2.33035592777e-04
  +2.89987603963e-04
  +3.47487039639e-04
  +4.05026713380e-04
  +4.62196118950e-04
  +5.18642836963e-04
  +5.74052585664e-04
  +6.28138333061e-04
  +6.80634138577e-04
  +7.31291610421e-04
  +7.79877878057e-04
  +8.26174474622e-04
  +8.69976780323e-04
  +9.11093817124e-04
  +9.49348264001e-04
  +9.84576608616e-04
  +1.01662937950e-03
  +1.04537142068e-03
  +1.07068218227e-03
  +1.09245600793e-03
  +1.11060240561e-03
  +1.12504629146e-03
  +1.13572819949e-03
  +1.14260445142e-03
  +1.14564728303e-03
  +1.14484492390e-03
  +1.14020162933e-03
  +1.13173766330e-03
  +1.11948923285e-03
  +1.10350837481e-03
  +1.08386279682e-03
  +1.06063567584e-03
  +1.03392541829e-03
  +1.00384538801e-03
  +9.70523609986e-04
  +9.34102460839e-04
  +8.94738361232e-04
  +8.52601490787e-04
  +8.07875555096e-04
  +7.60757647196e-04
  +7.11458266334e-04
  +6.60201589864e-04
  +6.07226148385e-04
  +5.52786148406e-04
  +4.97153854517e-04
  +4.40623757346e-04
  +3.83519872339e-04
  +3.26208808902e-04
  +2.69124155998e-04
  +2.12814843439e-04
  +1.58049082345e-04
</dep>
<dep V1.It time>
  -5.00000000000e-04
  -5.00000000000e-04
  -5.00000000000e-04
  -5.00000000000e-04
  -5.00000000000e-04
  -5.00000000000e-04
  -5.00000000000e-04
  -5.00000000000e-04
  -5.00000000000e-04
  -5.00000000000e-04
  -5.00000000000e-04
  -5.00000000000e-04
  -5.00000000000e-04
  -5.00000000000e-04
  -5.00000000000e-04
  -5.00000000000e-04
  -5.00000000000e-04
  -5.00000000000e-04
  -5.00000000000e-04
  -5.00000000000e-04
  -5.00000000000e-04
  -5.00000000000e-04
  -5.00000000000e-04
  -5.00000000000e-04
  -5.00000000000e-04
  -5.00000000000e-04
  -5.00000000000e-04
  -5.00000000000e-04
  -5.00000000000e-04
  -5.00000000000e-04
  -5.00000000000e-04
  -5.00000000000e-04
  -5.00000000000e-04
  -5.00000000000e-04
  -5.00000000000e-04
  -5.00000000000e-04
  -5.00000000000e-04
  -5.00000000000e-04
  -5.00000000000e-04
  -5.00000000000e-04
  -5.00000000000e-04
  -5.00000000000e-04
  -5.00000000000e-04
  -5.00000000000e-04
  -5.00000000000e-04
  -5.00000000000e-04
  -5.00000000000e-04
  -5.00000000000e-04
  -5.00000000000e-04
  -5.00000000000e-04
  -5.00000000000e-04
  -5.00000000000e-04
  -5.00000000000e-04
  -5.00000000000e-04
  -5.00000000000e-04
  -5.00000000000e-04
  -5.00000000000e-04
  -5.00000000000e-04
  -5.00000000000e-04
  -5.00000000000e-04
  -5.00000000000e-04
  -5.00000000000e-04
  -5.00000000000e-04
  -5.00000000000e-04
  -5.00000000000e-04
  -5.00000000000e-04
  -5.00000000000e-04
  -5.00000000000e-04
  -5.00000000000e-04
  -5.00000000000e-04
  -5.00000000000e-04
  -5.00000000000e-04
  -5.00000000000e-04
  -5.00000000000e-04
  -5.00000000000e-04
  -5.00000000000e-04
  -5.00000000000e-04
  -5.00000000000e-04
  -5.00000000000e-04
  -5.00000000000e-04
  -5.00000000000e-04
  -5.00000000000e-04
  -5.00000000000e-04
  -5.00000000000e-04
  -5.00000000000e-04
  -5.00000000000e-04
  -5.00000000000e-04
  -5.00000000000e-04
  -5.00000000000e-04
  -5.00000000000e-04
  -5.00000000000e-04
  -5.00000000000e-04
  -5.00000000000e-04
  -5.00000000000e-04
  -5.00000000000e-04
  -5.00000000000e-04
  -5.00000000000e-04
  -5.00000000000e-04
  -5.00000000000e-04
  -5.00000000000e-04
  -5.00000000000e-04
  -5.00000000000e-04
  -5.00000000000e-04
  -5.00000000000e-04
  -5.00000000000e-04
  -5.00000000000e-04
  -5.00000000000e-04
  -5.00000000000e-04
  -5.00000000000e-04
  -5.00000000000e-04
  -5.00000000000e-04
  -5.00000000000e-04
  -5.00000000000e-04
  -5.00000000000e-04
  -5.00000000000e-04
  -5.00000000000e-04
  -5.00000000000e-04
  -5.00000000000e-04
  -5.00000000000e-04
  -5.00000000000e-04
  -5.00000000000e-04
  -5.00000000000e-04
  -5.00000000000e-04
  -5.00000000000e-04
  -5.00000000000e-04
  -5.00000000000e-04
  -5.00000000000e-04
  -5.00000000000e-04
  -5.00000000000e-04
  -5.00000000000e-04
  -5.00000000000e-04
  -5.00000000000e-04
  -5.00000000000e-04
  -5.00000000000e-04
  -5.00000000000e-04
  -5.00000000000e-04
  -5.00000000000e-04
  -5.00000000000e-04
  -5.00000000000e-04
  -5.00000000000e-04
  -5.00000000000e-04
  -5.00000000000e-04
  -5.00000000000e-04
  -5.00000000000e-04
  -5.00000000000e-04
  -5.00000000000e-04
  -5.00000000000e-04
  -5.00000000000e-04
  -5.00000000000e-04
  -5.00000000000e-04
  -5.00000000000e-04
  -5.00000000000e-04
  -5.00000000000e-04
  -5.00000000000e-04
  -5.00000000000e-04
  -5.00000000000e-04
  -5.00000000000e-04
  -5.00000000000e-04
  -5.00000000000e-04
  -5.00000000000e-04
  -5.00000000000e-04
  -5.00000000000e-04
  -5.00000000000e-04
  -5.00000000000e-04
  -5.00000000000e-04
  -5.00000000000e-04
  -5.00000000000e-04
  -5.00000000000e-04
  -5.00000000000e-04
  -5.00000000000e-04
  -5.00000000000e-04
  -5.00000000000e-04
  -5.00000000000e-04
  -5.00000000000e-04
  -5.00000000000e-04
  -5.00000000000e-04
  -5.00000000000e-04
  -5.00000000000e-04
  -5.00000000000e-04
  -5.00000000000e-04
  -5.00000000000e-04
  -5.00000000000e-04
  -5.00000000000e-04
  -5.00000000000e-04
  -5.00000000000e-04
  -5.00000000000e-04
  -5.00000000000e-04
  -5.00000000000e-04
  -5.00000000000e-04
  -5.00000000000e-04
  -5.00000000000e-04
  -5.00000000000e-04
  -5.00000000000e-04
  -5.00000000000e-04
  -5.00000000000e-04
  -5.00000000000e-04
  -5.00000000000e-04
  -5.00000000000e-04
  -5.00000000000e-04
  -5.00000000000e-04
  -5.00000000000e-04
</dep>
<dep VS.It time>
  +3.15799552849e-11
  -7.91852594922e-05
  -1.35630010833e-04
  -1.88265911643e-04
  -2.34246325057e-04
  -2.67942549387e-04
  -2.84878916025e-04
  -2.94467993272e-04
  -3.01575922940e-04
  -3.06850764671e-04
  -3.11893137920e-04
  -3.16691060726e-04
  -3.21226524933e-04
  -3.25481674272e-04
  -3.29439638231e-04
  -3.33084701320e-04
  -3.36402380057e-04
  -3.39379482500e-04
  -3.42004160711e-04
  -3.44265957600e-04
  -3.46155848212e-04
  -3.47666275341e-04
  -3.48791179362e-04
  -3.49526022140e-04
  -3.49867804946e-04
  -3.49815080289e-04
  -3.49367957628e-04
  -3.48528102941e-04
  -3.47298732148e-04
  -3.45684598423e-04
  -3.43691973431e-04
  -3.41328622583e-04
  -3.38603774375e-04
  -3.35528083974e-04
  -3.32113591119e-04
  -3.28373672411e-04
  -3.24322987437e-04
  -3.19977414186e-04
  -3.15353941173e-04
  -3.10470269373e-04
  -3.05342118357e-04
  -2.99960818642e-04
  -2.94093568888e-04
  -2.87077483291e-04
  -2.78731810401e-04
  -2.49666788606e-04
  -2.04063935109e-04
  -1.49568958679e-04
  -9.03983239033e-05
  -2.85560868921e-05
  +3.48417358824e-05
  +9.90621043830e-05
  +1.63558067027e-04
  +2.27883381318e-04
  +2.91651764628e-04
  +3.54515949084e-04
  +4.16156326184e-04
  +4.76274580809e-04
  +5.34590076870e-04
  +5.90837833288e-04
  +6.44767453129e-04
  +6.96142639489e-04
  +7.44741078099e-04
  +7.90354549758e-04
  +8.32789184338e-04
  +8.71865797833e-04
  +9.07420272403e-04
  +9.39303951451e-04
  +9.67384029615e-04
  +9.91543923019e-04
  +1.01168360896e-03
  +1.02771992681e-03
  +1.03958683402e-03
  +1.04723561271e-03
  +1.05063502330e-03
  +1.04977140318e-03
  +1.04464870862e-03
  +1.03528849958e-03
  +1.02172986743e-03
  +1.00402930650e-03
  +9.82260531364e-04
  +9.56514242395e-04
  +9.26897843483e-04
  +8.93535117075e-04
  +8.56565863370e-04
  +8.16145512861e-04
  +7.72444724420e-04
  +7.25648985665e-04
  +6.75958238586e-04
  +6.23586562873e-04
  +5.68761964038e-04
  +5.11726335864e-04
  +4.52735704046e-04
  +3.92060919074e-04
  +3.29989073870e-04
  +2.66826114383e-04
  +2.02901476442e-04
  +1.38576308947e-04
  +7.42583849339e-05
  +1.04303164240e-05
  -5.22935818954e-05
  -1.13042522526e-04
  -1.70385132638e-04
  -2.21515206236e-04
  -2.60419308934e-04
  -2.80409770402e-04
  -2.88847738408e-04
  -2.94880673792e-04
  -3.00481367766e-04
  -3.05862234227e-04
  -3.11027721101e-04
  -3.15960310013e-04
  -3.20640799499e-04
  -3.25050666621e-04
  -3.29172415100e-04
  -3.32989679909e-04
  -3.36487296775e-04
  -3.39651362789e-04
  -3.42469291399e-04
  -3.44929862107e-04
  -3.47023264749e-04
  -3.48741138214e-04
  -3.50076603443e-04
  -3.51024290577e-04
  -3.51580360160e-04
  -3.51742518259e-04
  -3.51510025563e-04
  -3.50883700264e-04
  -3.49865914853e-04
