<Qucs Dataset 0.0.17>
<indep acfrequency 41>
  +1.00000000000e+00
  +1.67880401812e+00
  +2.81838293126e+00
  +4.73151258961e+00
  +7.94328234724e+00
  +1.33352143216e+01
  +2.23872113857e+01
  +3.75837404288e+01
  +6.30957344480e+01
  +1.05925372518e+02
  +1.77827941004e+02
  +2.98538261892e+02
  +5.01187233627e+02
  +8.41395141645e+02
  +1.41253754462e+03
  +2.37137370566e+03
  +3.98107170553e+03
  +6.68343917569e+03
  +1.12201845430e+04
  +1.88364908949e+04
  +3.16227766017e+04
  +5.30884444231e+04
  +8.91250938134e+04
  +1.49623565609e+05
  +2.51188643151e+05
  +4.21696503429e+05
  +7.07945784384e+05
  +1.18850222744e+06
  +1.99526231497e+06
  +3.34965439158e+06
  +5.62341325190e+06
  +9.44060876286e+06
  +1.58489319246e+07
  +2.66072505980e+07
  +4.46683592151e+07
  +7.49894209332e+07
  +1.25892541179e+08
  +2.11348903984e+08
  +3.54813389234e+08
  +5.95662143529e+08
  +1.00000000000e+09
</indep>
<indep RL 3>
  +2.00000000000e+02
  +2.00000000000e+03
  +2.00000000000e+04
</indep>
<dep Phase acfrequency RL>
  +1.79999846482e+02
  +1.79999742274e+02
  +1.79999567329e+02
  +1.79999273630e+02
  +1.79998780567e+02
  +1.79997952810e+02
  +1.79996563170e+02
  +1.79994230236e+02
  +1.79990313696e+02
  +1.79983738595e+02
  +1.79972700289e+02
  +1.79954169142e+02
  +1.79923059000e+02
  +1.79870831280e+02
  +1.79783151692e+02
  +1.79635957305e+02
  +1.79388858398e+02
  +1.78974082745e+02
  +1.78278015722e+02
  +1.77110683952e+02
  +1.75156749326e+02
  +1.71903523253e+02
  +1.66565708590e+02
  +1.58138864730e+02
  +1.46000269510e+02
  +1.31335078276e+02
  +1.17386859825e+02
  +1.06631017996e+02
  +9.91644360944e+01
  +9.39030279105e+01
  +8.96461261112e+01
  +8.52894010636e+01
  +7.96939461441e+01
  +7.15322545265e+01
  +5.94407389122e+01
  +4.31818554886e+01
  +2.53526262603e+01
  +9.20573181303e+00
  -5.28923657373e+00
  -1.99820668159e+01
  -3.53800426383e+01
  +1.79999845834e+02
  +1.79999741186e+02
  +1.79999565502e+02
  +1.79999270564e+02
  +1.79998775419e+02
  +1.79997944169e+02
  +1.79996548663e+02
  +1.79994205881e+02
  +1.79990272810e+02
  +1.79983669955e+02
  +1.79972585057e+02
  +1.79953975689e+02
  +1.79922734231e+02
  +1.79870286056e+02
  +1.79782236368e+02
  +1.79634420654e+02
  +1.79386278664e+02
  +1.78969751876e+02
  +1.78270745044e+02
  +1.77098477913e+02
  +1.75136257799e+02
  +1.71869122090e+02
  +1.66507956212e+02
  +1.58041911623e+02
  +1.45837510718e+02
  +1.31061855551e+02
  +1.16928209833e+02
  +1.05861133104e+02
  +9.78723354927e+01
  +9.17356031324e+01
  +8.60156875703e+01
  +7.92330622411e+01
  +6.97018273648e+01
  +5.55078163980e+01
  +3.53034629437e+01
  +1.02836262071e+01
  -1.55066448485e+01
  -3.83541356665e+01
  -5.60011594868e+01
  -6.77163741339e+01
  -7.42842381956e+01
  +1.79999839354e+02
  +1.79999730308e+02
  +1.79999547239e+02
  +1.79999239903e+02
  +1.79998723947e+02
  +1.79997857757e+02
  +1.79996403594e+02
  +1.79993962339e+02
  +1.79989863950e+02
  +1.79982983559e+02
  +1.79971432731e+02
  +1.79952041161e+02
  +1.79919486538e+02
  +1.79864833815e+02
  +1.79773083125e+02
  +1.79619054153e+02
  +1.79360481322e+02
  +1.78926443205e+02
  +1.78198038319e+02
  +1.76976417785e+02
  +1.74931343784e+02
  +1.71525116414e+02
  +1.65930460589e+02
  +1.57072513658e+02
  +1.44210551081e+02
  +1.28332589028e+02
  +1.12355637233e+02
  +9.82274904605e+01
  +8.52520662353e+01
  +7.13929548480e+01
  +5.50762063493e+01
  +3.68831069340e+01
  +1.92633895999e+01
  +3.39593571303e+00
  -1.18773198019e+01
  -2.80534956526e+01
  -4.47248620988e+01
  -5.93972706452e+01
  -7.00340672627e+01
  -7.65188790801e+01
  -7.96355609870e+01
</dep>
<dep Gain_dB acfrequency RL>
  -3.02494438278e+02
  -2.93494438278e+02
  -2.84494438279e+02
  -2.75494438279e+02
  -2.66494438280e+02
  -2.57494438284e+02
  -2.48494438294e+02
  -2.39494438322e+02
  -2.30494438401e+02
  -2.21494438625e+02
  -2.12494439255e+02
  -2.03494441030e+02
  -1.94494446035e+02
  -1.85494460139e+02
  -1.76494499888e+02
  -1.67494611916e+02
  -1.58494927639e+02
  -1.49495817343e+02
  -1.40498323890e+02
  -1.31505380524e+02
  -1.22525207347e+02
  -1.13580604763e+02
  -1.04733037778e+02
  -9.61359225633e+01
  -8.81039656954e+01
  -8.10439431446e+01
  -7.50875893142e+01
  -6.99261122140e+01
  -6.51661591061e+01
  -6.05736970702e+01
  -5.60507523101e+01
  -5.15716990325e+01
  -4.71603760682e+01
  -4.29137331458e+01
  -3.90767435826e+01
  -3.61001461475e+01
  -3.43664310107e+01
  -3.37021389748e+01
  -3.37093877968e+01
  -3.43308077871e+01
  -3.58454299620e+01
  -2.82494438278e+02
  -2.73494438278e+02
  -2.64494438279e+02
  -2.55494438279e+02
  -2.46494438280e+02
  -2.37494438284e+02
  -2.28494438294e+02
  -2.19494438322e+02
  -2.10494438401e+02
  -2.01494438625e+02
  -1.92494439255e+02
  -1.83494441030e+02
  -1.74494446035e+02
  -1.65494460139e+02
  -1.56494499890e+02
  -1.47494611922e+02
  -1.38494927654e+02
  -1.29495817386e+02
  -1.20498324011e+02
  -1.11505380865e+02
  -1.02525208309e+02
  -9.35806074725e+01
  -8.47330454004e+01
  -7.61359439468e+01
  -6.81040253795e+01
  -6.10441089869e+01
  -5.50880507281e+01
  -4.99274027474e+01
  -4.51697828345e+01
  -4.05838854745e+01
  -3.60793620769e+01
  -3.16516012057e+01
  -2.73800738923e+01
  -2.34936500219e+01
  -2.04707187929e+01
  -1.89460384072e+01
  -1.92317224396e+01
  -2.11503788188e+01
  -2.43154173241e+01
  -2.82332999164e+01
  -3.24987970014e+01
  -2.62494438278e+02
  -2.53494438278e+02
  -2.44494438279e+02
  -2.35494438279e+02
  -2.26494438280e+02
  -2.17494438284e+02
  -2.08494438294e+02
  -1.99494438322e+02
  -1.90494438402e+02
  -1.81494438626e+02
  -1.72494439257e+02
  -1.63494441037e+02
  -1.54494446053e+02
  -1.45494460189e+02
  -1.36494500031e+02
  -1.27494612320e+02
  -1.18494928775e+02
  -1.09495820546e+02
  -1.00498332915e+02
  -9.15054059609e+01
  -8.25252790357e+01
  -7.35808067835e+01
  -6.47336069604e+01
  -5.61375253946e+01
  -4.81084748970e+01
  -4.10566126970e+01
  -3.51231342881e+01
  -3.00254424355e+01
  -2.54403261984e+01
  -2.13056165897e+01
  -1.78601690045e+01
  -1.54684906404e+01
  -1.42065826291e+01
  -1.37895367930e+01
  -1.40015756827e+01
  -1.49466592704e+01
  -1.69098484769e+01
  -1.99594651771e+01
  -2.37904049320e+01
  -2.80203634835e+01
  -3.24107615743e+01
</dep>
<dep Gain acfrequency RL>
  -7.50374532998e-16+j2.01054378212e-21
  -2.11484277583e-15+j9.51291321696e-21
  -5.96043678149e-15+j4.50104686483e-20
  -1.67987932861e-14+j2.12967599052e-19
  -4.73454322496e-14+j1.00765887580e-18
  -1.33437558016e-13+j4.76775065303e-18
  -3.76078135034e-13+j2.25586721871e-17
  -1.05993218970e-12+j1.06736640767e-16
  -2.98729473693e-12+j5.05025750337e-16
  -8.41934006177e-12+j2.38953557281e-15
  -2.37289208637e-11+j1.13061160060e-14
  -6.68771580646e-11+j5.34950083510e-14
  -1.88485222539e-10+j2.53112013840e-13
  -5.31221800452e-10+j1.19759879081e-12
  -1.49717268522e-09+j5.66640189264e-12
  -4.21949656694e-09+j2.68099603076e-11
  -1.18912883978e-08+j1.26842443194e-10
  -3.35073057966e-08+j6.00033679927e-10
  -9.43816651932e-08+j2.83742880181e-09
  -2.65569708033e-07+j1.34035336119e-08
  -7.45051288190e-07+j6.31301208585e-08
  -2.07309466734e-06+j2.94915002603e-07
  -5.64025707691e-06+j1.34726655118e-06
  -1.44808320972e-05+j5.80985033428e-06
  -3.26119904645e-05+j2.19968421266e-05
  -5.85666446997e-05+j6.65827556096e-05
  -8.09794349657e-05+j1.56312897936e-04
  -9.12798329019e-05+j3.05587755449e-04
  -8.78661819498e-05+j5.44644003928e-04
  -6.37174275268e-05+j9.33913622000e-04
  +9.73162823061e-06+j1.57562949174e-03
  +2.16710111196e-04+j2.62993860814e-03
  +7.84524512773e-04+j4.31436824915e-03
  +2.26494893492e-03+j6.78190424498e-03
  +5.65448908543e-03+j9.57675335488e-03
  +1.14243274284e-02+j1.07213513142e-02
  +1.72861291226e-02+j8.19054926441e-03
  +2.03827660344e-02+j3.30338032802e-03
  +2.05436425759e-02-j1.90188368517e-03
  +1.80507344785e-02-j6.56353258232e-03
  +1.31541160788e-02-j9.34124952768e-03
  -7.50374532998e-15+j2.01903031816e-20
  -2.11484277583e-14+j9.55306736905e-20
  -5.96043678149e-14+j4.52004585244e-19
  -1.67987932861e-13+j2.13866538543e-18
  -4.73454322495e-13+j1.01191221932e-17
  -1.33437558016e-12+j4.78787540140e-17
  -3.76078135029e-12+j2.26538926872e-16
  -1.05993218966e-11+j1.07187177759e-15
  -2.98729473657e-11+j5.07157471747e-15
  -8.41934005889e-11+j2.39962183897e-14
  -2.37289208408e-10+j1.13538392943e-13
  -6.68771578829e-10+j5.37208115973e-13
  -1.88485221096e-09+j2.54180403498e-12
  -5.31221788990e-09+j1.20265387333e-11
  -1.49717259418e-08+j5.69031985792e-11
  -4.21949584376e-08+j2.69231255104e-10
  -1.18912826538e-07+j1.27377846426e-09
  -3.35072601798e-07+j6.02566422477e-09
  -9.43813030547e-07+j2.84940551508e-08
  -2.65566836137e-06+j1.34601085736e-07
  -7.45028579866e-06+j6.33965733789e-07
  -2.07291657602e-05+j2.96159571129e-06
  -5.63889126001e-05+j1.35294988362e-05
  -1.44709446007e-04+j5.83433139502e-05
  -3.25491493903e-04+j2.20892415916e-04
  -5.82473589249e-04+j6.68600039393e-04
  -7.97213413849e-04+j1.56947781721e-03
  -8.71525755207e-04+j3.06741082561e-03
  -7.55308731178e-04+j5.46258909182e-03
  -2.83182948079e-04+j9.34558389492e-03
  +1.09122064077e-03+j1.56668247218e-02
  +4.88461599736e-03+j2.56865736931e-02
  +1.48322757095e-02+j4.01007819101e-02
  +3.78755813822e-02+j5.51254220600e-02
  +7.73052262129e-02+j5.47421661061e-02
  +1.11087443528e-01+j2.01552170477e-02
  +1.05271405958e-01-j2.92074928451e-02
  +6.86914358047e-02-j5.43546891183e-02
  +3.40234034394e-02-j5.04439719216e-02
  +1.46958214641e-02-j3.58613035637e-02
  +6.42411741884e-03-j2.28304146058e-02
  -7.50374532998e-14+j2.10389567849e-19
  -2.11484277583e-13+j9.95460888987e-19
  -5.96043678147e-13+j4.71003572854e-18
  -1.67987932860e-12+j2.22855933448e-17
  -4.73454322486e-12+j1.05444565447e-16
  -1.33437558008e-11+j4.98912288515e-16
  -3.76078134969e-11+j2.36060976878e-15
  -1.05993218918e-10+j1.11692547676e-14
  -2.98729473278e-10+j5.28474685819e-14
  -8.41934002877e-10+j2.50048450023e-13
  -2.37289206015e-09+j1.18310721724e-12
  -6.68771559824e-09+j5.59788439895e-12
  -1.88485206000e-08+j2.64864299137e-11
  -5.31221669078e-08+j1.25320468598e-10
  -1.49717164170e-07+j5.92949934317e-10
  -4.21948827811e-07+j2.80547753032e-09
  -1.18912225621e-06+j1.32731848946e-08
  -3.35067829525e-06+j6.27893450591e-08
  -9.43775144979e-06+j2.96916735170e-07
  -2.65536791576e-05+j1.40257876815e-06
  -7.44791017940e-05+j6.60601626211e-06
  -2.07105354868e-04+j3.08592933911e-05
  -5.62460475896e-04+j1.40962457357e-04
  -1.43675498510e-03+j6.07721469150e-04
  -3.18925285206e-03+j2.29926902127e-03
  -5.49185223927e-03+j6.94576497644e-03
  -6.66855503036e-03+j1.62147505234e-02
  -4.51210375627e-03+j3.12057640353e-02
  +4.42454431287e-03+j5.32709989164e-02
  +2.74544722171e-02+j8.15461430113e-02
  +7.32414164942e-02+j1.04896249571e-01
  +1.34769104753e-01+j1.01125384492e-01
  +1.83928216543e-01+j6.42788370474e-02
  +2.04060940024e-01+j1.21089275736e-02
  +1.95219063907e-01-j4.10584079442e-02
  +1.57901449813e-01-j8.41468930887e-02
  +1.01407039645e-01-j1.00437760893e-01
  +5.11463727126e-02-j8.64743913858e-02
  +2.20709645230e-02-j6.07518446524e-02
  +9.25913865952e-03-j3.86231483449e-02
  +4.31036420640e-03-j2.35677015209e-02
</dep>
<dep V1.i acfrequency RL>
  -1.68365522203e-16-j5.94203435275e-11
  -4.74518513983e-16-j9.97551114708e-11
  -1.33737488033e-15-j1.67469281959e-10
  -3.76923453504e-15-j2.81148103434e-10
  -1.06231462744e-14-j4.71992565588e-10
  -2.99400941118e-14-j7.92383014947e-10
  -8.43826500110e-14-j1.33025578613e-09
  -2.37822618945e-13-j2.23323874352e-09
  -6.70275197659e-13-j3.74917010326e-09
  -1.88909207908e-12-j6.29412148968e-09
  -5.32418409881e-12-j1.05665948183e-08
  -1.50055834512e-11-j1.77392341308e-08
  -4.22914315335e-11-j2.97806610665e-08
  -1.19193061627e-10-j4.99957208994e-08
  -3.35928615247e-10-j8.39322006690e-08
  -9.46751049270e-10-j1.40901852750e-07
  -2.66811299339e-09-j2.36528320606e-07
  -7.51822351802e-09-j3.96998246134e-07
  -2.11770049721e-08-j6.66073536481e-07
  -5.95879936088e-08-j1.11627734604e-06
  -1.67176705552e-07-j1.86493738530e-06
  -4.65195094088e-07-j3.08867015535e-06
  -1.26587056683e-06-j4.99495804958e-06
  -3.25157453764e-06-j7.59316442435e-06
  -7.33279194613e-06-j1.00131108396e-05
  -1.32195032946e-05-j1.01870212510e-05
  -1.84795456356e-05-j7.15440816043e-06
  -2.14975933395e-05-j2.35999679741e-06
  -2.27570642064e-05+j3.14782796495e-06
  -2.30548279343e-05+j9.87935864735e-06
  -2.26313853218e-05+j1.93860170242e-05
  -2.09784291153e-05+j3.41338406522e-05
  -1.61851746287e-05+j5.77870423656e-05
  -2.90677164910e-06+j9.50675376728e-05
  +3.17532789435e-05+j1.48049531811e-04
  +1.06909342275e-04+j2.01349962750e-04
  +2.14341727084e-04+j2.14888595192e-04
  +3.03843054944e-04+j1.82051590332e-04
  +3.56365283003e-04+j1.41943048852e-04
  +3.90990278648e-04+j1.15822190994e-04
  +4.24379647975e-04+j9.77326581964e-05
  -1.68365522203e-16-j5.94203435275e-11
  -4.74518513983e-16-j9.97551114708e-11
  -1.33737488033e-15-j1.67469281959e-10
  -3.76923453504e-15-j2.81148103434e-10
  -1.06231462744e-14-j4.71992565588e-10
  -2.99400941118e-14-j7.92383014947e-10
  -8.43826500111e-14-j1.33025578613e-09
  -2.37822618945e-13-j2.23323874352e-09
  -6.70275197660e-13-j3.74917010327e-09
  -1.88909207910e-12-j6.29412148972e-09
  -5.32418409891e-12-j1.05665948185e-08
  -1.50055834520e-11-j1.77392341319e-08
  -4.22914315403e-11-j2.97806610715e-08
  -1.19193061681e-10-j4.99957209234e-08
  -3.35928615676e-10-j8.39322007826e-08
  -9.46751052674e-10-j1.40901853288e-07
  -2.66811302042e-09-j2.36528323149e-07
  -7.51822373271e-09-j3.96998258161e-07
  -2.11770066765e-08-j6.66073593357e-07
  -5.95880071257e-08-j1.11627761471e-06
  -1.67176812442e-07-j1.86493865079e-06
  -4.65195932580e-07-j3.08867606768e-06
  -1.26587700167e-06-j4.99498506545e-06
  -3.25162119787e-06-j7.59328097816e-06
  -7.33308950314e-06-j1.00135521439e-05
  -1.32210224799e-05-j1.01883510751e-05
  -1.84855575060e-05-j7.15746167527e-06
  -2.15173631529e-05-j2.36553041515e-06
  -2.28162010772e-05+j3.14021728586e-06
  -2.32244891414e-05+j9.87720721471e-06
  -2.31068906926e-05+j1.94338018251e-05
  -2.22715565184e-05+j3.44497843804e-05
  -1.94604352619e-05+j5.93281216245e-05
  -9.76415605513e-06+j1.01306275910e-04
  +2.33086257140e-05+j1.67053354037e-04
  +1.09087916024e-04+j2.39011793188e-04
  +2.41431960490e-04+j2.64339282346e-04
  +3.62388370937e-04+j2.26878660096e-04
  +4.37512670993e-04+j1.62619126935e-04
  +4.73129144602e-04+j1.04963171095e-04
  +4.87470667888e-04+j6.45018316493e-05
  -1.68365522203e-16-j5.94203435275e-11
  -4.74518513983e-16-j9.97551114708e-11
  -1.33737488033e-15-j1.67469281959e-10
  -3.76923453504e-15-j2.81148103434e-10
  -1.06231462744e-14-j4.71992565588e-10
  -2.99400941118e-14-j7.92383014948e-10
  -8.43826500113e-14-j1.33025578614e-09
  -2.37822618948e-13-j2.23323874354e-09
  -6.70275197678e-13-j3.74917010338e-09
  -1.88909207924e-12-j6.29412149020e-09
  -5.32418410004e-12-j1.05665948208e-08
  -1.50055834610e-11-j1.77392341426e-08
  -4.22914316114e-11-j2.97806611223e-08
  -1.19193062246e-10-j4.99957211635e-08
  -3.35928620160e-10-j8.39322019184e-08
  -9.46751088295e-10-j1.40901858662e-07
  -2.66811330335e-09-j2.36528348574e-07
  -7.51822597964e-09-j3.96998378434e-07
  -2.11770245144e-08-j6.66074162085e-07
  -5.95881485906e-08-j1.11628030111e-06
  -1.67177931102e-07-j1.86495130122e-06
  -4.65204707595e-07-j3.08873513295e-06
  -1.26594433694e-06-j4.99525447649e-06
  -3.25210932020e-06-j7.59443741743e-06
  -7.33619983209e-06-j1.00178678622e-05
  -1.32368669042e-05-j1.02008171252e-05
  -1.85478669561e-05-j7.18250415729e-06
  -2.17187099358e-05-j2.39108615517e-06
  -2.33901163082e-05+j3.20640779303e-06
  -2.46727493437e-05+j1.04559879368e-05
  -2.60659102717e-05+j2.19439841195e-05
  -2.62439785046e-05+j4.19638348121e-05
  -2.06863098719e-05+j7.53641737823e-05
  -5.11625632119e-07+j1.26143456824e-04
  +5.07484571044e-05+j1.92321550829e-04
  +1.50612774766e-04+j2.50491781277e-04
  +2.83009400019e-04+j2.57908373191e-04
  +3.93088330101e-04+j2.08313638270e-04
  +4.54217817158e-04+j1.42389997371e-04
  +4.80621522487e-04+j8.95552545074e-05
  +4.90737354026e-04+j5.44289542336e-05
</dep>
<dep V2.i acfrequency RL>
  +1.59918953160e-16+j5.97129080485e-11
  +4.50712847967e-16+j1.00246269964e-10
  +1.27028139757e-15+j1.68293840812e-10
  +3.58013940844e-15+j2.82532376151e-10
  +1.00902037974e-14+j4.74316488194e-10
  +2.84380581324e-14+j7.96284425590e-10
  +8.01493374543e-14+j1.33680549016e-09
  +2.25891523170e-13+j2.24423441373e-09
  +6.36648801591e-13+j3.76762968226e-09
  +1.79432002326e-12+j6.32511152240e-09
  +5.05708019318e-12+j1.06186210917e-08
  +1.42527826714e-11+j1.78265764356e-08
  +4.01697531178e-11+j2.99272935138e-08
  +1.13213378875e-10+j5.02418967242e-08
  +3.19075734186e-10+j8.43455227167e-08
  +8.99254406048e-10+j1.41595933846e-07
  +2.53425902700e-09+j2.37694466367e-07
  +7.14104930596e-09+j3.98960326346e-07
  +2.01145989092e-08+j6.69388050724e-07
  +5.65986032338e-08+j1.12193886059e-06
  +1.58789957015e-07+j1.87489852861e-06
  +4.41858576682e-07+j3.10751613375e-06
  +1.20237513603e-06+j5.03617315136e-06
  +3.08852773563e-06+j7.70222878016e-06
  +6.96541802336e-06+j1.03337963308e-05
  +1.25588368933e-05+j1.10586481883e-05
  +1.75624356512e-05+j9.11821912058e-06
  +2.04518357008e-05+j6.14230020756e-06
  +2.17133661033e-05+j3.55885003506e-06
  +2.21805395004e-05+j1.60712119318e-06
  +2.22978603787e-05+j1.98497252073e-08
  +2.21901423474e-05-j1.56371489712e-06
  +2.17408911707e-05-j3.50765997916e-06
  +2.05099432000e-05-j6.09586196239e-06
  +1.76266042989e-05-j9.11589692481e-06
  +1.25197446159e-05-j1.10511627891e-05
  +6.90591090727e-06-j1.01076166262e-05
  +3.28207133860e-06-j7.34421789607e-06
  +1.62781018879e-06-j4.79771216029e-06
  +9.28218450456e-07-j3.06784075152e-06
  +5.72058589385e-07-j1.98089625074e-06
  +1.59918953160e-16+j5.97129080485e-11
  +4.50712847967e-16+j1.00246269964e-10
  +1.27028139757e-15+j1.68293840812e-10
  +3.58013940844e-15+j2.82532376151e-10
  +1.00902037974e-14+j4.74316488194e-10
  +2.84380581324e-14+j7.96284425590e-10
  +8.01493374543e-14+j1.33680549016e-09
  +2.25891523170e-13+j2.24423441373e-09
  +6.36648801591e-13+j3.76762968226e-09
  +1.79432002326e-12+j6.32511152240e-09
  +5.05708019317e-12+j1.06186210917e-08
  +1.42527826714e-11+j1.78265764355e-08
  +4.01697531174e-11+j2.99272935135e-08
  +1.13213378872e-10+j5.02418967231e-08
  +3.19075734161e-10+j8.43455227112e-08
  +8.99254405851e-10+j1.41595933820e-07
  +2.53425902543e-09+j2.37694466244e-07
  +7.14104929352e-09+j3.98960325764e-07
  +2.01145988104e-08+j6.69388047974e-07
  +5.65986024511e-08+j1.12193884760e-06
  +1.58789950834e-07+j1.87489846757e-06
  +4.41858528406e-07+j3.10751584999e-06
  +1.20237476977e-06+j5.03617187231e-06
  +3.08852515555e-06+j7.70222344972e-06
  +6.96540255804e-06+j1.03337776084e-05
  +1.25587651555e-05+j1.10585981611e-05
  +1.75621771057e-05+j9.11811813629e-06
  +2.04510333916e-05+j6.14213746512e-06
  +2.17110294583e-05+j3.55867279646e-06
  +2.21739106381e-05+j1.60731385494e-06
  +2.22793991301e-05+j2.24854587067e-08
  +2.21403766247e-05-j1.54871895997e-06
  +2.16178262089e-05-j3.43720597837e-06
  +2.02745742968e-05-j5.81535876832e-06
  +1.74829362810e-05-j8.29784609196e-06
  +1.32475809929e-05-j9.77288493501e-06
  +8.68091649944e-06-j9.57502143897e-06
  +4.82257099591e-06-j8.02185127539e-06
  +2.27098401353e-06-j5.80747336156e-06
  +9.90493136818e-07-j3.78245915233e-06
  +4.60733075017e-07-j2.33416296269e-06
  +1.59918953160e-16+j5.97129080485e-11
  +4.50712847967e-16+j1.00246269964e-10
  +1.27028139757e-15+j1.68293840812e-10
  +3.58013940844e-15+j2.82532376151e-10
  +1.00902037974e-14+j4.74316488194e-10
  +2.84380581324e-14+j7.96284425590e-10
  +8.01493374543e-14+j1.33680549016e-09
  +2.25891523170e-13+j2.24423441373e-09
  +6.36648801590e-13+j3.76762968226e-09
  +1.79432002325e-12+j6.32511152238e-09
  +5.05708019311e-12+j1.06186210916e-08
  +1.42527826709e-11+j1.78265764350e-08
  +4.01697531133e-11+j2.99272935111e-08
